
**** 05/19/25 08:26:07 **** PSpice 24.1.0 (23 January 2025) *** ID# 0 ********

 ** Profile: "SCHEMATIC1-worst"  [ d:\facultate\an 2\semestru 2\cad\proiectul meu_pwm\proiectcad-pspicefiles\schematic1\worst.sim ] 


 ****     CIRCUIT DESCRIPTION


******************************************************************************




** Creating circuit file "worst.cir" 
** WARNING: THIS AUTOMATICALLY GENERATED FILE MAY BE OVERWRITTEN BY SUBSEQUENT SIMULATIONS

*Libraries: 
* Profile Libraries :
* Local Libraries :
* From [PSPICE NETLIST] section of C:\Users\user\AppData\Roaming\SPB_Data\cdssetup\OrCAD_PSpice\24.1.0\PSpice.ini file:
.lib "nom.lib" 

*Analysis directives: 
.TRAN  0 300u 0 10u 
.TEMP -20 40 100
.OPTIONS ADVCONV
.PROBE64 V(alias(*)) I(alias(*)) W(alias(*)) D(alias(*)) NOISE(alias(*)) 
.INC "..\SCHEMATIC1.net" 



**** INCLUDING SCHEMATIC1.net ****
* source PROIECTCAD
V_V2         -VCC 0 -15V
R_R3         N65354 N27903 R_R3 16k  
.model        R_R3 RES R=1 DEV=5%
X_P1    N28519 N28363 N34705 SCHEMATIC1_P1 
X_U7         N56026 0 VCC -VCC N27745 LM7171A/NS
D_D1         N27789 N27903 D1N4448 
R_R5         VCC N28363 R_R5 33k  
.model        R_R5 RES R=1 DEV=5%
D_D2         N28115 N27789 D1N4448 
R_R2         N56026 N27745 R_R2 13k  
.model        R_R2 RES R=1 DEV=5%
R_R4         N27745 N28115 R_R4 1.1k  
.model        R_R4 RES R=1 DEV=5%
R_R7         N30840 N56018 R_R7 12k  
.model        R_R7 RES R=1 DEV=5%
V_V1         VCC 0 15V
C_C1         N27789 N27803 C_C1 1n IC=0 
.model        C_C1 CAP C=1 DEV=10%
R_R6         N28519 -VCC R_R6 22k  
.model        R_R6 RES R=1 DEV=5%
R_R1         N27803 N56026 R_R1 11k  
.model        R_R1 RES R=1 DEV=5%
X_P2    N30840 N30576 N28413 SCHEMATIC1_P2 
X_U8         N27803 N34705 VCC -VCC N56018 LM7171A/NS
R_R8         0 N30576 R_R8 2.7k  
.model        R_R8 RES R=1 DEV=5%
X_U5         0 N27789 VCC -VCC N27803 LM7171A/NS
X_U13         N28413 OUT VCC -VCC OUT LM7171A/NS
R_R19         0 OUT R_R19 1k  
.model        R_R19 RES R=1 DEV=5%
R_R20         N27745 N65354  1.5k TC=0,0 
.IC         V(N27789 )=0
.PARAM  setfu=1 seta=1

.subckt SCHEMATIC1_P1 1 2 t  
RT_P1         1 t {(10k*(1-{setfu}))+.001}
RB_P1         t 2 {(10k*{setfu})+.001}
.ends SCHEMATIC1_P1

.subckt SCHEMATIC1_P2 1 2 t  
RT_P2         1 t {(10K*(1-{seta}))+.001}
RB_P2         t 2 {(10K*{seta})+.001}
.ends SCHEMATIC1_P2

**** RESUMING worst.cir ****
.END

**** 05/19/25 08:26:07 **** PSpice 24.1.0 (23 January 2025) *** ID# 0 ********

 ** Profile: "SCHEMATIC1-worst"  [ d:\facultate\an 2\semestru 2\cad\proiectul meu_pwm\proiectcad-pspicefiles\schematic1\worst.sim ] 


 ****     Diode MODEL PARAMETERS


******************************************************************************




               D1N4448         X_U7.DMOD1      X_U7.DMOD2      X_U8.DMOD1      
          IS    2.681000E-09   10.000000E-15   10.000000E-18   10.000000E-15 
           N    1.835                                                        
         ISR    1.566000E-09                                                 
         IKF     .03482                                                      
          BV  100                                                            
         IBV  100.000000E-06                                                 
          RS     .5142                                                       
          TT   11.540000E-09                                                 
         CJO    4.000000E-12                                                 
          VJ     .5                                                          
           M     .3333                                                       


               X_U8.DMOD2      X_U5.DMOD1      X_U5.DMOD2      X_U13.DMOD1     
          IS   10.000000E-18   10.000000E-15   10.000000E-18   10.000000E-15 


               X_U13.DMOD2     
          IS   10.000000E-18 


**** 05/19/25 08:26:07 **** PSpice 24.1.0 (23 January 2025) *** ID# 0 ********

 ** Profile: "SCHEMATIC1-worst"  [ d:\facultate\an 2\semestru 2\cad\proiectul meu_pwm\proiectcad-pspicefiles\schematic1\worst.sim ] 


 ****     BJT MODEL PARAMETERS


******************************************************************************




               X_U7.NPN1       X_U7.PNP1       X_U8.NPN1       X_U8.PNP1       
               NPN             PNP             NPN             PNP             
       LEVEL    1               1               1               1            
          IS    1.000000E-15    1.000000E-15    1.000000E-15    1.000000E-15 
          BF  100             100             100             100            
          NF    1               1               1               1            
          BR    1               1               1               1            
          NR    1               1               1               1            
         ISS    0               0               0               0            
          RE    0               0               0               0            
          RC    0               0               0               0            
         CJE    0               0               0               0            
         VJE     .75             .75             .75             .75         
         CJC    0               0               0               0            
         VJC     .75             .75             .75             .75         
         MJC     .33             .33             .33             .33         
        XCJC    1               1               1               1            
         CJS    0               0               0               0            
         VJS     .75             .75             .75             .75         
          KF    0               0               0               0            
          AF    1               1               1               1            
          CN    2.42            2.2             2.42            2.2          
           D     .87             .52             .87             .52         


               X_U5.NPN1       X_U5.PNP1       X_U13.NPN1      X_U13.PNP1      
               NPN             PNP             NPN             PNP             
       LEVEL    1               1               1               1            
          IS    1.000000E-15    1.000000E-15    1.000000E-15    1.000000E-15 
          BF  100             100             100             100            
          NF    1               1               1               1            
          BR    1               1               1               1            
          NR    1               1               1               1            
         ISS    0               0               0               0            
          RE    0               0               0               0            
          RC    0               0               0               0            
         CJE    0               0               0               0            
         VJE     .75             .75             .75             .75         
         CJC    0               0               0               0            
         VJC     .75             .75             .75             .75         
         MJC     .33             .33             .33             .33         
        XCJC    1               1               1               1            
         CJS    0               0               0               0            
         VJS     .75             .75             .75             .75         
          KF    0               0               0               0            
          AF    1               1               1               1            
          CN    2.42            2.2             2.42            2.2          
           D     .87             .52             .87             .52         


**** 05/19/25 08:26:07 **** PSpice 24.1.0 (23 January 2025) *** ID# 0 ********

 ** Profile: "SCHEMATIC1-worst"  [ d:\facultate\an 2\semestru 2\cad\proiectul meu_pwm\proiectcad-pspicefiles\schematic1\worst.sim ] 


 ****     Resistor MODEL PARAMETERS


******************************************************************************




               R_R3            R_R5            R_R2            R_R4            
           R    1               1               1               1            


               R_R7            R_R6            R_R1            R_R8            
           R    1               1               1               1            


               R_R19           X_U7.MRAX       X_U7.MRIB       X_U7.MRISC      
           R    1               1               1               1            
         TC1                  -70.000000E-06    4.520560E-03   -1.500000E-03 


               X_U8.MRAX       X_U8.MRIB       X_U8.MRISC      X_U5.MRAX       
           R    1               1               1               1            
         TC1  -70.000000E-06    4.520560E-03   -1.500000E-03  -70.000000E-06 


               X_U5.MRIB       X_U5.MRISC      X_U13.MRAX      X_U13.MRIB      
           R    1               1               1               1            
         TC1    4.520560E-03   -1.500000E-03  -70.000000E-06    4.520560E-03 


               X_U13.MRISC     
           R    1            
         TC1   -1.500000E-03 


**** 05/19/25 08:26:07 **** PSpice 24.1.0 (23 January 2025) *** ID# 0 ********

 ** Profile: "SCHEMATIC1-worst"  [ d:\facultate\an 2\semestru 2\cad\proiectul meu_pwm\proiectcad-pspicefiles\schematic1\worst.sim ] 


 ****     Capacitor MODEL PARAMETERS


******************************************************************************




               C_C1            
           C    1            


**** 05/19/25 08:26:07 **** PSpice 24.1.0 (23 January 2025) *** ID# 0 ********

 ** Profile: "SCHEMATIC1-worst"  [ d:\facultate\an 2\semestru 2\cad\proiectul meu_pwm\proiectcad-pspicefiles\schematic1\worst.sim ] 


 ****     TEMPERATURE-ADJUSTED VALUES      TEMPERATURE =  -20.000 DEG C


******************************************************************************




 **** CAPACITORS

                 C_C1 <C_C1>  

          C        1.000E-09  



 **** DIODE MODEL PARAMETERS

                   D1N4448      X_U7.DMOD2     X_U7.DMOD1   

         IS        2.640E-11      2.078E-21      2.078E-18  
         VJ        6.193E-01      1.041E+00      1.041E+00  
        CJO        3.657E-12      0.000E+00      0.000E+00  
         RS        5.142E-01      0.000E+00      0.000E+00  
        IKF        3.482E-02      0.000E+00      0.000E+00  
         BV        1.000E+02  

                 X_U8.DMOD2     X_U8.DMOD1     X_U5.DMOD2   

         IS        2.078E-21      2.078E-18      2.078E-21  
         VJ        1.041E+00      1.041E+00      1.041E+00  
        CJO        0.000E+00      0.000E+00      0.000E+00  
         RS        0.000E+00      0.000E+00      0.000E+00  
        IKF        0.000E+00      0.000E+00      0.000E+00  
         BV                   

                 X_U5.DMOD1     X_U13.DMOD2    X_U13.DMOD1  

         IS        2.078E-18      2.078E-21      2.078E-18  
         VJ        1.041E+00      1.041E+00      1.041E+00  
        CJO        0.000E+00      0.000E+00      0.000E+00  
         RS        0.000E+00      0.000E+00      0.000E+00  
        IKF        0.000E+00      0.000E+00      0.000E+00  
         BV                   


 **** BJT MODEL PARAMETERS

                  X_U7.NPN1      X_U7.PNP1      X_U8.NPN1   

         BF        1.000E+02      1.000E+02      1.000E+02  
        ISE        0.000E+00      0.000E+00      0.000E+00  
        VJE        8.302E-01      8.302E-01      8.302E-01  
        CJE        0.000E+00      0.000E+00      0.000E+00  
         RE        0.000E+00      0.000E+00      0.000E+00  
         RB        0.000E+00      0.000E+00      0.000E+00  
         BR        1.000E+00      1.000E+00      1.000E+00  
        ISC        0.000E+00      0.000E+00      0.000E+00  
        VJC        8.302E-01      8.302E-01      8.302E-01  
        CJC        0.000E+00      0.000E+00      0.000E+00  
         RC        0.000E+00      0.000E+00      0.000E+00  
        RBM        0.000E+00      0.000E+00      0.000E+00  
         IS        2.078E-19      2.078E-19      2.078E-19  
        ISS        0.000E+00      0.000E+00      0.000E+00  
        VJS        8.302E-01      8.302E-01      8.302E-01  
        CJS        0.000E+00      0.000E+00      0.000E+00  
      GAMMA        1.000E-11      1.000E-11      1.000E-11  
        RCO        0.000E+00      0.000E+00      0.000E+00  
         VO        1.000E+01      1.000E+01      1.000E+01  

                  X_U8.PNP1      X_U5.NPN1      X_U5.PNP1   

         BF        1.000E+02      1.000E+02      1.000E+02  
        ISE        0.000E+00      0.000E+00      0.000E+00  
        VJE        8.302E-01      8.302E-01      8.302E-01  
        CJE        0.000E+00      0.000E+00      0.000E+00  
         RE        0.000E+00      0.000E+00      0.000E+00  
         RB        0.000E+00      0.000E+00      0.000E+00  
         BR        1.000E+00      1.000E+00      1.000E+00  
        ISC        0.000E+00      0.000E+00      0.000E+00  
        VJC        8.302E-01      8.302E-01      8.302E-01  
        CJC        0.000E+00      0.000E+00      0.000E+00  
         RC        0.000E+00      0.000E+00      0.000E+00  
        RBM        0.000E+00      0.000E+00      0.000E+00  
         IS        2.078E-19      2.078E-19      2.078E-19  
        ISS        0.000E+00      0.000E+00      0.000E+00  
        VJS        8.302E-01      8.302E-01      8.302E-01  
        CJS        0.000E+00      0.000E+00      0.000E+00  
      GAMMA        1.000E-11      1.000E-11      1.000E-11  
        RCO        0.000E+00      0.000E+00      0.000E+00  
         VO        1.000E+01      1.000E+01      1.000E+01  

                 X_U13.NPN1     X_U13.PNP1                  

         BF        1.000E+02      1.000E+02  
        ISE        0.000E+00      0.000E+00  
        VJE        8.302E-01      8.302E-01  
        CJE        0.000E+00      0.000E+00  
         RE        0.000E+00      0.000E+00  
         RB        0.000E+00      0.000E+00  
         BR        1.000E+00      1.000E+00  
        ISC        0.000E+00      0.000E+00  
        VJC        8.302E-01      8.302E-01  
        CJC        0.000E+00      0.000E+00  
         RC        0.000E+00      0.000E+00  
        RBM        0.000E+00      0.000E+00  
         IS        2.078E-19      2.078E-19  
        ISS        0.000E+00      0.000E+00  
        VJS        8.302E-01      8.302E-01  
        CJS        0.000E+00      0.000E+00  
      GAMMA        1.000E-11      1.000E-11  
        RCO        0.000E+00      0.000E+00  
         VO        1.000E+01      1.000E+01  


 **** RESISTORS

                 R_R3 <R_R3>    R_R5 <R_R5>    R_R2 <R_R2>  

          R        1.600E+04      3.300E+04      1.300E+04  


                 R_R4 <R_R4>    R_R7 <R_R7>    R_R6 <R_R6>  

          R        1.100E+03      1.200E+04      2.200E+04  


                 R_R1 <R_R1>    R_R8 <R_R8>   R_R19 <R_R19> 

          R        1.100E+04      2.700E+03      1.000E+03  


               X_U7.RAX <X_U7.MRAX>
                              X_U7.RIB <X_U7.MRIB>
                                             X_U7.RISC <X_U7.MRISC>

          R        1.005E+03      7.875E+02      1.071E+03  


               X_U8.RAX <X_U8.MRAX>
                              X_U8.RIB <X_U8.MRIB>
                                             X_U8.RISC <X_U8.MRISC>

          R        1.005E+03      7.875E+02      1.071E+03  


               X_U5.RAX <X_U5.MRAX>
                              X_U5.RIB <X_U5.MRIB>
                                             X_U5.RISC <X_U5.MRISC>

          R        1.005E+03      7.875E+02      1.071E+03  


               X_U13.RAX <X_U13.MRAX>
                              X_U13.RIB <X_U13.MRIB>
                                             X_U13.RISC <X_U13.MRISC>

          R        1.005E+03      7.875E+02      1.071E+03  



**** 05/19/25 08:26:07 **** PSpice 24.1.0 (23 January 2025) *** ID# 0 ********

 ** Profile: "SCHEMATIC1-worst"  [ d:\facultate\an 2\semestru 2\cad\proiectul meu_pwm\proiectcad-pspicefiles\schematic1\worst.sim ] 


 ****     INITIAL TRANSIENT SOLUTION       TEMPERATURE =  -20.000 DEG C


******************************************************************************



 NODE   VOLTAGE     NODE   VOLTAGE     NODE   VOLTAGE     NODE   VOLTAGE


(  OUT)    6.9475  (  VCC)   15.0000  ( -VCC)  -15.0000  (N27745)   13.3410     

(N27789) 326.6E-06 (N27803) 630.4E-06 (N27903)   13.3410 (N28115)     .8031     

(N28363)    -.2681 (N28413)    6.9456 (N28519)   -4.8948 (N30576)    1.4766     

(N30840)    6.9456 (N34705)   -4.8948 (N56018)   13.5630 (N56026)    6.0809     

(N65354)   13.3410 (X_U5.10)    0.0000                   (X_U5.11)    -.0041    

(X_U5.17)    0.0000                   (X_U5.18)    -.0040                       

(X_U5.19)    -.0045                   (X_U5.21)   -1.2500                       

(X_U5.22)   28.7500                   (X_U5.23)   28.7500                       

(X_U5.24)    1.7375                   (X_U5.25)    1.0000                       

(X_U5.26)    1.0000                   (X_U5.27)     .8881                       

(X_U5.28)     .7699                   (X_U5.29)    0.0000                       

(X_U5.31)    3.8580                   (X_U5.32)    2.8580                       

(X_U5.33)    2.0705                   (X_U5.34)    1.0000                       

(X_U5.38)    -.0041                   (X_U5.39)    -.0041                       

(X_U5.40)   15.0000                   (X_U5.41)    -.0041                       

(X_U5.42)   15.0000                   (X_U5.43)    0.0000                       

(X_U5.44)    0.0000                   (X_U5.45)    0.0000                       

(X_U5.50)  -15.0000                   (X_U5.51)   99.3000                       

(X_U5.52)  -95.8520                   (X_U5.57)     .0843                       

(X_U5.58)    -.0023                   (X_U5.59)   15.7790                       

(X_U5.71)   15.7780                   (X_U5.72)   14.8900                       

(X_U5.73)    2.9409                   (X_U5.74)   13.6000                       

(X_U5.75)  -13.4000                   (X_U5.76)   15.0000                       

(X_U5.77)  -15.0000                   (X_U5.78)    2.0439                       

(X_U5.79)    1.8925                   (X_U5.81)    1.8925                       

(X_U5.86) 630.4E-06                   (X_U5.91)    0.0000                       

(X_U5.92)    0.0000                   (X_U5.93)     .8470                       

(X_U5.94)    -.0041                   (X_U5.95)  -13.3000                       

(X_U5.96)    -.0041                   (X_U5.97)   13.3000                       

(X_U5.98)    -.0041                   (X_U5.99)    -.0041                       

(X_U7.10)    0.0000                   (X_U7.11)    2.9517                       

(X_U7.17)    0.0000                   (X_U7.18)    -.0032                       

(X_U7.19)    6.0752                   (X_U7.21)   -1.2500                       

(X_U7.22)   28.7500                   (X_U7.23)   28.7500                       

(X_U7.24)    1.7375                   (X_U7.25)    1.0000                       

(X_U7.26)    1.0000                   (X_U7.27)     .8881                       

