
**** 05/19/25 08:20:35 **** PSpice 24.1.0 (23 January 2025) *** ID# 0 ********

 ** Profile: "SCHEMATIC1-PARAM_sETA"  [ d:\facultate\an 2\semestru 2\cad\proiectul meu_pwm\proiectcad-pspicefiles\schematic1\param_se


 ****     CIRCUIT DESCRIPTION


******************************************************************************




** Creating circuit file "PARAM_sETA.cir" 
** WARNING: THIS AUTOMATICALLY GENERATED FILE MAY BE OVERWRITTEN BY SUBSEQUENT SIMULATIONS

*Libraries: 
* Profile Libraries :
* Local Libraries :
* From [PSPICE NETLIST] section of C:\Users\user\AppData\Roaming\SPB_Data\cdssetup\OrCAD_PSpice\24.1.0\PSpice.ini file:
.lib "nom.lib" 

*Analysis directives: 
.TRAN  0 300u 0 0.1 
.STEP LIN PARAM seta 0 1 0.5 
.OPTIONS ADVCONV
.PROBE64 V(alias(*)) I(alias(*)) W(alias(*)) D(alias(*)) NOISE(alias(*)) 
.INC "..\SCHEMATIC1.net" 



**** INCLUDING SCHEMATIC1.net ****
* source PROIECTCAD
V_V2         -VCC 0 -15V
R_R3         N65354 N27903 R_R3 16k  
.model        R_R3 RES R=1 DEV=5%
X_P1    N28519 N28363 N34705 SCHEMATIC1_P1 
X_U7         N56026 0 VCC -VCC N27745 LM7171A/NS
D_D1         N27789 N27903 D1N4448 
R_R5         VCC N28363 R_R5 33k  
.model        R_R5 RES R=1 DEV=5%
D_D2         N28115 N27789 D1N4448 
R_R2         N56026 N27745 R_R2 13k  
.model        R_R2 RES R=1 DEV=5%
R_R4         N27745 N28115 R_R4 1.1k  
.model        R_R4 RES R=1 DEV=5%
R_R7         N30840 N56018 R_R7 12k  
.model        R_R7 RES R=1 DEV=5%
V_V1         VCC 0 15V
C_C1         N27789 N27803 C_C1 1n IC=0 
.model        C_C1 CAP C=1 DEV=10%
R_R6         N28519 -VCC R_R6 22k  
.model        R_R6 RES R=1 DEV=5%
R_R1         N27803 N56026 R_R1 11k  
.model        R_R1 RES R=1 DEV=5%
X_P2    N30840 N30576 N28413 SCHEMATIC1_P2 
X_U8         N27803 N34705 VCC -VCC N56018 LM7171A/NS
R_R8         0 N30576 R_R8 2.7k  
.model        R_R8 RES R=1 DEV=5%
X_U5         0 N27789 VCC -VCC N27803 LM7171A/NS
X_U13         N28413 OUT VCC -VCC OUT LM7171A/NS
R_R19         0 OUT R_R19 1k  
.model        R_R19 RES R=1 DEV=5%
R_R20         N27745 N65354  1.5k TC=0,0 
.IC         V(N27789 )=0
.PARAM  setfu=1 seta=1

.subckt SCHEMATIC1_P1 1 2 t  
RT_P1         1 t {(10k*(1-{setfu}))+.001}
RB_P1         t 2 {(10k*{setfu})+.001}
.ends SCHEMATIC1_P1

.subckt SCHEMATIC1_P2 1 2 t  
RT_P2         1 t {(10K*(1-{seta}))+.001}
RB_P2         t 2 {(10K*{seta})+.001}
.ends SCHEMATIC1_P2

**** RESUMING PARAM_sETA.cir ****
.END

**** 05/19/25 08:20:35 **** PSpice 24.1.0 (23 January 2025) *** ID# 0 ********

 ** Profile: "SCHEMATIC1-PARAM_sETA"  [ d:\facultate\an 2\semestru 2\cad\proiectul meu_pwm\proiectcad-pspicefiles\schematic1\param_se


 ****     Diode MODEL PARAMETERS


******************************************************************************




               D1N4448         X_U7.DMOD1      X_U7.DMOD2      X_U8.DMOD1      
          IS    2.681000E-09   10.000000E-15   10.000000E-18   10.000000E-15 
           N    1.835                                                        
         ISR    1.566000E-09                                                 
         IKF     .03482                                                      
          BV  100                                                            
         IBV  100.000000E-06                                                 
          RS     .5142                                                       
          TT   11.540000E-09                                                 
         CJO    4.000000E-12                                                 
          VJ     .5                                                          
           M     .3333                                                       


               X_U8.DMOD2      X_U5.DMOD1      X_U5.DMOD2      X_U13.DMOD1     
          IS   10.000000E-18   10.000000E-15   10.000000E-18   10.000000E-15 


               X_U13.DMOD2     
          IS   10.000000E-18 


**** 05/19/25 08:20:35 **** PSpice 24.1.0 (23 January 2025) *** ID# 0 ********

 ** Profile: "SCHEMATIC1-PARAM_sETA"  [ d:\facultate\an 2\semestru 2\cad\proiectul meu_pwm\proiectcad-pspicefiles\schematic1\param_se


 ****     BJT MODEL PARAMETERS


******************************************************************************




               X_U7.NPN1       X_U7.PNP1       X_U8.NPN1       X_U8.PNP1       
               NPN             PNP             NPN             PNP             
       LEVEL    1               1               1               1            
          IS    1.000000E-15    1.000000E-15    1.000000E-15    1.000000E-15 
          BF  100             100             100             100            
          NF    1               1               1               1            
          BR    1               1               1               1            
          NR    1               1               1               1            
         ISS    0               0               0               0            
          RE    0               0               0               0            
          RC    0               0               0               0            
         CJE    0               0               0               0            
         VJE     .75             .75             .75             .75         
         CJC    0               0               0               0            
         VJC     .75             .75             .75             .75         
         MJC     .33             .33             .33             .33         
        XCJC    1               1               1               1            
         CJS    0               0               0               0            
         VJS     .75             .75             .75             .75         
          KF    0               0               0               0            
          AF    1               1               1               1            
          CN    2.42            2.2             2.42            2.2          
           D     .87             .52             .87             .52         


               X_U5.NPN1       X_U5.PNP1       X_U13.NPN1      X_U13.PNP1      
               NPN             PNP             NPN             PNP             
       LEVEL    1               1               1               1            
          IS    1.000000E-15    1.000000E-15    1.000000E-15    1.000000E-15 
          BF  100             100             100             100            
          NF    1               1               1               1            
          BR    1               1               1               1            
          NR    1               1               1               1            
         ISS    0               0               0               0            
          RE    0               0               0               0            
          RC    0               0               0               0            
         CJE    0               0               0               0            
         VJE     .75             .75             .75             .75         
         CJC    0               0               0               0            
         VJC     .75             .75             .75             .75         
         MJC     .33             .33             .33             .33         
        XCJC    1               1               1               1            
         CJS    0               0               0               0            
         VJS     .75             .75             .75             .75         
          KF    0               0               0               0            
          AF    1               1               1               1            
          CN    2.42            2.2             2.42            2.2          
           D     .87             .52             .87             .52         


**** 05/19/25 08:20:35 **** PSpice 24.1.0 (23 January 2025) *** ID# 0 ********

 ** Profile: "SCHEMATIC1-PARAM_sETA"  [ d:\facultate\an 2\semestru 2\cad\proiectul meu_pwm\proiectcad-pspicefiles\schematic1\param_se


 ****     Resistor MODEL PARAMETERS


******************************************************************************




               R_R3            R_R5            R_R2            R_R4            
           R    1               1               1               1            


               R_R7            R_R6            R_R1            R_R8            
           R    1               1               1               1            


               R_R19           X_U7.MRAX       X_U7.MRIB       X_U7.MRISC      
           R    1               1               1               1            
         TC1                  -70.000000E-06    4.520560E-03   -1.500000E-03 


               X_U8.MRAX       X_U8.MRIB       X_U8.MRISC      X_U5.MRAX       
           R    1               1               1               1            
         TC1  -70.000000E-06    4.520560E-03   -1.500000E-03  -70.000000E-06 


               X_U5.MRIB       X_U5.MRISC      X_U13.MRAX      X_U13.MRIB      
           R    1               1               1               1            
         TC1    4.520560E-03   -1.500000E-03  -70.000000E-06    4.520560E-03 


               X_U13.MRISC     
           R    1            
         TC1   -1.500000E-03 


**** 05/19/25 08:20:35 **** PSpice 24.1.0 (23 January 2025) *** ID# 0 ********

 ** Profile: "SCHEMATIC1-PARAM_sETA"  [ d:\facultate\an 2\semestru 2\cad\proiectul meu_pwm\proiectcad-pspicefiles\schematic1\param_se


 ****     Capacitor MODEL PARAMETERS


******************************************************************************




               C_C1            
           C    1            


**** 05/19/25 08:20:35 **** PSpice 24.1.0 (23 January 2025) *** ID# 0 ********

 ** Profile: "SCHEMATIC1-PARAM_sETA"  [ d:\facultate\an 2\semestru 2\cad\proiectul meu_pwm\proiectcad-pspicefiles\schematic1\param_se


 ****     INITIAL TRANSIENT SOLUTION       TEMPERATURE =   27.000 DEG C

 ****     CURRENT STEP                     PARAM SETA =    0     


******************************************************************************



 NODE   VOLTAGE     NODE   VOLTAGE     NODE   VOLTAGE     NODE   VOLTAGE


(  OUT)    1.4752  (  VCC)   15.0000  ( -VCC)  -15.0000  (N27745)   13.3210     

(N27789) 306.7E-06 (N27803) 590.6E-06 (N27903)   13.3210 (N28115)     .7310     

(N28363)    -.2527 (N28413)    1.4744 (N28519)   -4.8747 (N30576)    1.4744     

(N30840)    6.9661 (N34705)   -4.8747 (N56018)   13.5560 (N56026)    6.0799     

(N65354)   13.3210 (X_U5.10)    0.0000                   (X_U5.11)    -.0028    

(X_U5.17)    0.0000                   (X_U5.18)    -.0027                       

(X_U5.19)    -.0031                   (X_U5.21)   -1.2500                       

(X_U5.22)   28.7500                   (X_U5.23)   28.7500                       

(X_U5.24)    1.6551                   (X_U5.25)    1.0000                       

(X_U5.26)    1.0000                   (X_U5.27)     .8337                       

(X_U5.28)     .6836                   (X_U5.29)    0.0000                       

(X_U5.31)    4.0000                   (X_U5.32)    3.0000                       

(X_U5.33)    2.0000                   (X_U5.34)    1.0000                       

(X_U5.38)    -.0028                   (X_U5.39)    -.0028                       

(X_U5.40)   15.0000                   (X_U5.41)    -.0028                       

(X_U5.42)   15.0000                   (X_U5.43)    0.0000                       

(X_U5.44)    0.0000                   (X_U5.45)    0.0000                       

(X_U5.50)  -15.0000                   (X_U5.51)   99.3000                       

(X_U5.52)  -95.8520                   (X_U5.57)     .0236                       

(X_U5.58)-632.4E-06                   (X_U5.59)    6.3235                       

(X_U5.71)    6.3222                   (X_U5.72)    5.5267                       

(X_U5.73)    2.7517                   (X_U5.74)   13.6000                       

(X_U5.75)  -13.4000                   (X_U5.76)   15.0000                       

(X_U5.77)  -15.0000                   (X_U5.78)    1.9093                       

(X_U5.79)    1.7679                   (X_U5.81)    1.7679                       

(X_U5.86) 590.6E-06                   (X_U5.91)    0.0000                       

(X_U5.92)    0.0000                   (X_U5.93)     .7832                       

(X_U5.94)    -.0028                   (X_U5.95)  -13.3000                       

(X_U5.96)    -.0028                   (X_U5.97)   13.3000                       

(X_U5.98)    -.0028                   (X_U5.99)    -.0028                       

(X_U7.10)    0.0000                   (X_U7.11)    2.9526                       

(X_U7.17)    0.0000                   (X_U7.18)    -.0018                       

(X_U7.19)    6.0756                   (X_U7.21)   -1.2500                       

(X_U7.22)   28.7500                   (X_U7.23)   28.7500                       

(X_U7.24)    1.6551                   (X_U7.25)    1.0000                       

(X_U7.26)    1.0000                   (X_U7.27)     .8337                       

(X_U7.28)     .6836                   (X_U7.29)    0.0000                       

(X_U7.31)    4.0000                   (X_U7.32)    3.0000                       

(X_U7.33)    2.0000                   (X_U7.34)    1.0000                       

(X_U7.38)    2.9526                   (X_U7.39)    2.9526                       

(X_U7.40)   15.0000                   (X_U7.41)    2.9525                       

(X_U7.42)   15.0000                   (X_U7.43)    0.0000                       

(X_U7.44)    0.0000                   (X_U7.45)    0.0000                       

(X_U7.50)  -15.0000                   (X_U7.51)   99.3000                       

(X_U7.52)  -95.8520                   (X_U7.57)  100.1700                       

(X_U7.58)   -2.6795                   (X_U7.59)   15.9190                       

(X_U7.71)   15.9170                   (X_U7.72)   15.1220                       

(X_U7.73)   14.2620                   (X_U7.74)   13.6000                       

(X_U7.75)  -13.4000                   (X_U7.76)   15.0000                       

(X_U7.77)  -15.0000                   (X_U7.78)   13.4830                       

(X_U7.79)   13.4710                   (X_U7.81)   13.4710                       

(X_U7.86)   13.3210                   (X_U7.91)    0.0000                       

(X_U7.92)    0.0000                   (X_U7.93)     .7194                       

(X_U7.94)    2.9526                   (X_U7.95)  -13.3000                       

(X_U7.96)    2.9526                   (X_U7.97)   13.3000                       

(X_U7.98)    2.9526                   (X_U7.99)    2.9526                       

(X_U8.10)    0.0000                   (X_U8.11)   -2.3723                       

(X_U8.17)    0.0000                   (X_U8.18)   -4.8767                       

(X_U8.19)    -.0034                   (X_U8.21)   -1.2500                       

(X_U8.22)   28.7500                   (X_U8.23)   28.7500                       

(X_U8.24)    1.6551                   (X_U8.25)    1.0000                       

(X_U8.26)    1.0000                   (X_U8.27)     .8337                       

(X_U8.28)     .6836                   (X_U8.29)    0.0000                       

(X_U8.31)    4.0000                   (X_U8.32)    3.0000                       

(X_U8.33)    2.0000                   (X_U8.34)    1.0000                       

(X_U8.38)   -2.3723                   (X_U8.39)   -2.3723                       

(X_U8.40)   15.0000                   (X_U8.41)   -2.3722                       

(X_U8.42)   15.0000                   (X_U8.43)    0.0000                       

(X_U8.44)    0.0000                   (X_U8.45)    0.0000                       

(X_U8.50)  -15.0000                   (X_U8.51)   99.3000                       

(X_U8.52)  -95.8520                   (X_U8.57)  100.1500                       

(X_U8.58)   -2.6792                   (X_U8.59)   15.9190                       

(X_U8.71)   15.9170                   (X_U8.72)   15.1220                       

(X_U8.73)   14.2640                   (X_U8.74)   13.6000                       

(X_U8.75)  -13.4000                   (X_U8.76)   15.0000                       

(X_U8.77)  -15.0000                   (X_U8.78)   13.5630                       

(X_U8.79)   13.5630                   (X_U8.81)   13.5630                       

(X_U8.86)   13.5560                   (X_U8.91)    0.0000                       

(X_U8.92)    0.0000                   (X_U8.93)     .6396                       

(X_U8.94)   -2.3723                   (X_U8.95)  -13.3000                       

(X_U8.96)   -2.3723                   (X_U8.97)   13.3000                       

(X_U8.98)   -2.3723                   (X_U8.99)   -2.3723                       

(X_U13.10)    0.0000                  (X_U13.11)    1.4309                      

(X_U13.17)    0.0000                  (X_U13.18)    1.4722                      

(X_U13.19)    1.4713                  (X_U13.21)   -1.2500                      

(X_U13.22)   28.7500                  (X_U13.23)   28.7500                      

(X_U13.24)    1.6551                  (X_U13.25)    1.0000                      

(X_U13.26)    1.0000                  (X_U13.27)     .8337                      

(X_U13.28)     .6836                  (X_U13.29)    0.0000                      

(X_U13.31)    4.0000                  (X_U13.32)    3.0000                      

(X_U13.33)    2.0000                  (X_U13.34)    1.0000                      

(X_U13.38)    1.4309                  (X_U13.39)    1.4309                      

(X_U13.40)   15.0000                  (X_U13.41)    1.4309                      

(X_U13.42)   15.0000                  (X_U13.43)    0.0000                      

(X_U13.44)    0.0000                  (X_U13.45)    0.0000                      

(X_U13.50)  -15.0000                  (X_U13.51)   99.3000                      

(X_U13.52)  -95.8520                  (X_U13.57)     .0056                      

(X_U13.58)-149.3E-06                  (X_U13.59)    1.4929                      

(X_U13.71)    1.4929                  (X_U13.72)     .7094                      

(X_U13.73)    2.2830                  (X_U13.74)   13.6000                      

(X_U13.75)  -13.4000                  (X_U13.76)   15.0000                      

(X_U13.77)  -15.0000                  (X_U13.78)    1.5053                      

(X_U13.79)    1.4836                  (X_U13.81)    1.4937                      

(X_U13.86)    1.4752                  (X_U13.91)    0.0000                      

(X_U13.92)    0.0000                  (X_U13.93)     .6652                      

(X_U13.94)    1.4309                  (X_U13.95)  -13.3000                      

(X_U13.96)    1.4309                  (X_U13.97)   13.3000                      

(X_U13.98)    1.4309                  (X_U13.99)    1.4309                      

(X_U5.120)    2.0000                  (X_U5.121)    1.0000                      

(X_U5.122)    1.0009                  (X_U5.710)    6.3222                      

(X_U5.720)    5.6597                  (X_U7.120)    2.0000                      

(X_U7.121)    1.0000                  (X_U7.122)    1.0009                      

(X_U7.710)   15.9170                  (X_U7.720)   15.2550                      

